!Agilent Technologies,E5061B,MY49304813,A.02.21
!Date: Sun Jun 23 21:38:15 2019
!Data & Calibration Information:
!Freq	S11:SOLT2(OFF)	S21:SOLT2(OFF)	S12:SOLT2(OFF)	S22:SOLT2(OFF)
# Hz S dB R 50
30000000.000	-3.146813e+001	-1.280322e+002	-9.007741e-002	-6.616653e+001	-2.000000e+002	0.000000e+000	-2.000000e+002	0.000000e+000
44850000.000	-3.294988e+001	1.548257e+002	-1.122044e-001	-9.878548e+001	-2.000000e+002	0.000000e+000	-2.000000e+002	0.000000e+000
59700000.000	-3.293341e+001	7.624407e+001	-1.344952e-001	-1.313641e+002	-2.000000e+002	0.000000e+000	-2.000000e+002	0.000000e+000
74550000.000	-3.274568e+001	5.296065e+000	-1.493721e-001	-1.639214e+002	-2.000000e+002	0.000000e+000	-2.000000e+002	0.000000e+000
89400000.000	-3.360526e+001	-6.509694e+001	-1.611593e-001	1.635230e+002	-2.000000e+002	0.000000e+000	-2.000000e+002	0.000000e+000
104250000.000	-3.463530e+001	-1.456656e+002	-1.782814e-001	1.309566e+002	-2.000000e+002	0.000000e+000	-2.000000e+002	0.000000e+000
119100000.000	-3.346504e+001	1.305807e+002	-1.913554e-001	9.841137e+001	-2.000000e+002	0.000000e+000	-2.000000e+002	0.000000e+000
133950000.000	-3.132567e+001	6.115904e+001	-2.047407e-001	6.586497e+001	-2.000000e+002	0.000000e+000	-2.000000e+002	0.000000e+000
148800000.000	-3.022494e+001	1.865829e+000	-2.173601e-001	3.333694e+001	-2.000000e+002	0.000000e+000	-2.000000e+002	0.000000e+000
163650000.000	-3.051060e+001	-5.390687e+001	-2.307967e-001	8.359930e-001	-2.000000e+002	0.000000e+000	-2.000000e+002	0.000000e+000
178500000.000	-3.217936e+001	-1.097189e+002	-2.413641e-001	-3.172002e+001	-2.000000e+002	0.000000e+000	-2.000000e+002	0.000000e+000
193350000.000	-3.533318e+001	-1.669994e+002	-2.567280e-001	-6.423351e+001	-2.000000e+002	0.000000e+000	-2.000000e+002	0.000000e+000
208200000.000	-4.121058e+001	1.336538e+002	-2.628052e-001	-9.689159e+001	-2.000000e+002	0.000000e+000	-2.000000e+002	0.000000e+000
223050000.000	-7.888193e+001	1.771846e+002	-2.716174e-001	-1.294323e+002	-2.000000e+002	0.000000e+000	-2.000000e+002	0.000000e+000
237900000.000	-3.996617e+001	-1.614417e+002	-2.866504e-001	-1.618770e+002	-2.000000e+002	0.000000e+000	-2.000000e+002	0.000000e+000
252750000.000	-3.381007e+001	1.467882e+002	-3.026249e-001	1.656858e+002	-2.000000e+002	0.000000e+000	-2.000000e+002	0.000000e+000
267600000.000	-3.067744e+001	9.777488e+001	-3.124604e-001	1.331853e+002	-2.000000e+002	0.000000e+000	-2.000000e+002	0.000000e+000
282450000.000	-2.928112e+001	5.160542e+001	-3.215023e-001	1.006185e+002	-2.000000e+002	0.000000e+000	-2.000000e+002	0.000000e+000
297300000.000	-2.925221e+001	8.485755e+000	-3.338409e-001	6.813278e+001	-2.000000e+002	0.000000e+000	-2.000000e+002	0.000000e+000
312150000.000	-3.037899e+001	-3.012522e+001	-3.613179e-001	3.574653e+001	-2.000000e+002	0.000000e+000	-2.000000e+002	0.000000e+000
327000000.000	-3.219813e+001	-5.986665e+001	-3.885439e-001	3.408024e+000	-2.000000e+002	0.000000e+000	-2.000000e+002	0.000000e+000
341850000.000	-3.302431e+001	-7.807298e+001	-3.880981e-001	-2.917243e+001	-2.000000e+002	0.000000e+000	-2.000000e+002	0.000000e+000
356700000.000	-3.138859e+001	-9.874946e+001	-3.578203e-001	-6.237763e+001	-2.000000e+002	0.000000e+000	-2.000000e+002	0.000000e+000
371550000.000	-2.897107e+001	-1.322917e+002	-3.909842e-001	-9.443639e+001	-2.000000e+002	0.000000e+000	-2.000000e+002	0.000000e+000
386400000.000	-2.709377e+001	-1.719856e+002	-4.133519e-001	-1.267428e+002	-2.000000e+002	0.000000e+000	-2.000000e+002	0.000000e+000
401250000.000	-2.597821e+001	1.470135e+002	-4.166419e-001	-1.594061e+002	-2.000000e+002	0.000000e+000	-2.000000e+002	0.000000e+000
416100000.000	-2.570729e+001	1.074959e+002	-4.300649e-001	1.680633e+002	-2.000000e+002	0.000000e+000	-2.000000e+002	0.000000e+000
430950000.000	-2.621298e+001	7.166816e+001	-4.361467e-001	1.355305e+002	-2.000000e+002	0.000000e+000	-2.000000e+002	0.000000e+000
445800000.000	-2.718700e+001	4.218441e+001	-4.429275e-001	1.031020e+002	-2.000000e+002	0.000000e+000	-2.000000e+002	0.000000e+000
460650000.000	-2.768325e+001	1.846869e+001	-4.487395e-001	7.052747e+001	-2.000000e+002	0.000000e+000	-2.000000e+002	0.000000e+000
475500000.000	-2.717046e+001	-7.119699e+000	-4.627269e-001	3.797469e+001	-2.000000e+002	0.000000e+000	-2.000000e+002	0.000000e+000
490350000.000	-2.646543e+001	-3.874216e+001	-4.745785e-001	5.526591e+000	-2.000000e+002	0.000000e+000	-2.000000e+002	0.000000e+000
505200000.000	-2.532353e+001	-7.357327e+001	-4.861244e-001	-2.692759e+001	-2.000000e+002	0.000000e+000	-2.000000e+002	0.000000e+000
520050000.000	-2.396625e+001	-1.143667e+002	-5.004653e-001	-5.938422e+001	-2.000000e+002	0.000000e+000	-2.000000e+002	0.000000e+000
534900000.000	-2.296668e+001	-1.567562e+002	-5.158185e-001	-9.191834e+001	-2.000000e+002	0.000000e+000	-2.000000e+002	0.000000e+000
549750000.000	-2.242699e+001	1.632059e+002	-5.280150e-001	-1.244092e+002	-2.000000e+002	0.000000e+000	-2.000000e+002	0.000000e+000
564600000.000	-2.225923e+001	1.279554e+002	-5.395208e-001	-1.568518e+002	-2.000000e+002	0.000000e+000	-2.000000e+002	0.000000e+000
579450000.000	-2.223645e+001	9.815822e+001	-5.483131e-001	1.706243e+002	-2.000000e+002	0.000000e+000	-2.000000e+002	0.000000e+000
594300000.000	-2.189373e+001	7.168453e+001	-5.585233e-001	1.381066e+002	-2.000000e+002	0.000000e+000	-2.000000e+002	0.000000e+000
609150000.000	-2.124882e+001	4.464435e+001	-5.721315e-001	1.056868e+002	-2.000000e+002	0.000000e+000	-2.000000e+002	0.000000e+000
624000000.000	-2.054412e+001	1.397869e+001	-5.803835e-001	7.313950e+001	-2.000000e+002	0.000000e+000	-2.000000e+002	0.000000e+000
638850000.000	-2.012191e+001	-2.097672e+001	-5.916583e-001	4.067292e+001	-2.000000e+002	0.000000e+000	-2.000000e+002	0.000000e+000
653700000.000	-2.017917e+001	-5.931425e+001	-6.057692e-001	8.238952e+000	-2.000000e+002	0.000000e+000	-2.000000e+002	0.000000e+000
668550000.000	-2.067737e+001	-9.921137e+001	-6.072125e-001	-2.426086e+001	-2.000000e+002	0.000000e+000	-2.000000e+002	0.000000e+000
683400000.000	-2.145454e+001	-1.376838e+002	-6.137541e-001	-5.677738e+001	-2.000000e+002	0.000000e+000	-2.000000e+002	0.000000e+000
698250000.000	-2.215402e+001	-1.708559e+002	-6.217128e-001	-8.929628e+001	-2.000000e+002	0.000000e+000	-2.000000e+002	0.000000e+000
713100000.000	-2.207393e+001	1.631021e+002	-6.285931e-001	-1.217995e+002	-2.000000e+002	0.000000e+000	-2.000000e+002	0.000000e+000
727950000.000	-2.070935e+001	1.387824e+002	-6.441050e-001	-1.544496e+002	-2.000000e+002	0.000000e+000	-2.000000e+002	0.000000e+000
742800000.000	-1.876716e+001	1.098318e+002	-6.862149e-001	1.730267e+002	-2.000000e+002	0.000000e+000	-2.000000e+002	0.000000e+000
757650000.000	-1.712137e+001	7.583422e+001	-7.155300e-001	1.404730e+002	-2.000000e+002	0.000000e+000	-2.000000e+002	0.000000e+000
772500000.000	-1.619108e+001	3.874178e+001	-7.333614e-001	1.080744e+002	-2.000000e+002	0.000000e+000	-2.000000e+002	0.000000e+000
787350000.000	-1.609048e+001	1.888096e-001	-7.401339e-001	7.585908e+001	-2.000000e+002	0.000000e+000	-2.000000e+002	0.000000e+000
802200000.000	-1.680774e+001	-3.877408e+001	-7.349871e-001	4.355240e+001	-2.000000e+002	0.000000e+000	-2.000000e+002	0.000000e+000
817050000.000	-1.828139e+001	-7.636278e+001	-7.187817e-001	1.101310e+001	-2.000000e+002	0.000000e+000	-2.000000e+002	0.000000e+000
831900000.000	-2.022394e+001	-1.088731e+002	-7.066863e-001	-2.163187e+001	-2.000000e+002	0.000000e+000	-2.000000e+002	0.000000e+000
846750000.000	-2.150907e+001	-1.323417e+002	-7.144841e-001	-5.429686e+001	-2.000000e+002	0.000000e+000	-2.000000e+002	0.000000e+000
861600000.000	-2.058564e+001	-1.532228e+002	-7.407329e-001	-8.691188e+001	-2.000000e+002	0.000000e+000	-2.000000e+002	0.000000e+000
876450000.000	-1.830435e+001	1.771363e+002	-7.888103e-001	-1.195855e+002	-2.000000e+002	0.000000e+000	-2.000000e+002	0.000000e+000
891300000.000	-1.620002e+001	1.401098e+002	-8.456371e-001	-1.520854e+002	-2.000000e+002	0.000000e+000	-2.000000e+002	0.000000e+000
906150000.000	-1.478868e+001	9.986799e+001	-8.952065e-001	1.755433e+002	-2.000000e+002	0.000000e+000	-2.000000e+002	0.000000e+000
921000000.000	-1.418406e+001	5.889465e+001	-9.158685e-001	1.433988e+002	-2.000000e+002	0.000000e+000	-2.000000e+002	0.000000e+000
935850000.000	-1.443920e+001	1.812206e+001	-9.007120e-001	1.112228e+002	-2.000000e+002	0.000000e+000	-2.000000e+002	0.000000e+000
950700000.000	-1.558732e+001	-2.135786e+001	-8.599790e-001	7.881757e+001	-2.000000e+002	0.000000e+000	-2.000000e+002	0.000000e+000
965550000.000	-1.761922e+001	-5.687400e+001	-8.324932e-001	4.619345e+001	-2.000000e+002	0.000000e+000	-2.000000e+002	0.000000e+000
980400000.000	-1.998767e+001	-8.275143e+001	-8.262449e-001	1.338615e+001	-2.000000e+002	0.000000e+000	-2.000000e+002	0.000000e+000
995250000.000	-2.050149e+001	-9.788788e+001	-8.484432e-001	-1.949893e+001	-2.000000e+002	0.000000e+000	-2.000000e+002	0.000000e+000
1010100000.000	-1.839335e+001	-1.206992e+002	-9.025036e-001	-5.207187e+001	-2.000000e+002	0.000000e+000	-2.000000e+002	0.000000e+000
1024950000.000	-1.593029e+001	-1.557499e+002	-9.805207e-001	-8.458983e+001	-2.000000e+002	0.000000e+000	-2.000000e+002	0.000000e+000
1039800000.000	-1.406551e+001	1.639020e+002	-1.062888e+000	-1.169517e+002	-2.000000e+002	0.000000e+000	-2.000000e+002	0.000000e+000
1054650000.000	-1.293570e+001	1.223900e+002	-1.123927e+000	-1.491103e+002	-2.000000e+002	0.000000e+000	-2.000000e+002	0.000000e+000
1069500000.000	-1.255518e+001	8.129790e+001	-1.131794e+000	1.787652e+002	-2.000000e+002	0.000000e+000	-2.000000e+002	0.000000e+000
1084350000.000	-1.295709e+001	4.186692e+001	-1.093642e+000	1.466643e+002	-2.000000e+002	0.000000e+000	-2.000000e+002	0.000000e+000
1099200000.000	-1.414410e+001	5.277862e+000	-1.035798e+000	1.143170e+002	-2.000000e+002	0.000000e+000	-2.000000e+002	0.000000e+000
1114050000.000	-1.592484e+001	-2.561515e+001	-9.888775e-001	8.148242e+001	-2.000000e+002	0.000000e+000	-2.000000e+002	0.000000e+000
1128900000.000	-1.736129e+001	-4.807813e+001	-9.834120e-001	4.852339e+001	-2.000000e+002	0.000000e+000	-2.000000e+002	0.000000e+000
1143750000.000	-1.707502e+001	-6.842057e+001	-1.023879e+000	1.571015e+001	-2.000000e+002	0.000000e+000	-2.000000e+002	0.000000e+000
1158600000.000	-1.557967e+001	-9.726499e+001	-1.096329e+000	-1.698137e+001	-2.000000e+002	0.000000e+000	-2.000000e+002	0.000000e+000
1173450000.000	-1.408192e+001	-1.340374e+002	-1.173319e+000	-4.946455e+001	-2.000000e+002	0.000000e+000	-2.000000e+002	0.000000e+000
1188300000.000	-1.301540e+001	-1.743317e+002	-1.243867e+000	-8.167863e+001	-2.000000e+002	0.000000e+000	-2.000000e+002	0.000000e+000
1203150000.000	-1.247351e+001	1.449640e+002	-1.287718e+000	-1.137031e+002	-2.000000e+002	0.000000e+000	-2.000000e+002	0.000000e+000
1218000000.000	-1.248363e+001	1.056027e+002	-1.278472e+000	-1.457904e+002	-2.000000e+002	0.000000e+000	-2.000000e+002	0.000000e+000
1232850000.000	-1.305558e+001	6.882505e+001	-1.237912e+000	-1.780632e+002	-2.000000e+002	0.000000e+000	-2.000000e+002	0.000000e+000
1247700000.000	-1.407441e+001	3.625664e+001	-1.196053e+000	1.491584e+002	-2.000000e+002	0.000000e+000	-2.000000e+002	0.000000e+000
1262550000.000	-1.508601e+001	8.990713e+000	-1.186139e+000	1.162113e+002	-2.000000e+002	0.000000e+000	-2.000000e+002	0.000000e+000
1277400000.000	-1.538434e+001	-1.568260e+001	-1.220288e+000	8.335310e+001	-2.000000e+002	0.000000e+000	-2.000000e+002	0.000000e+000
1292250000.000	-1.487893e+001	-4.364175e+001	-1.288949e+000	5.074388e+001	-2.000000e+002	0.000000e+000	-2.000000e+002	0.000000e+000
1307100000.000	-1.413176e+001	-7.741216e+001	-1.358603e+000	1.833634e+001	-2.000000e+002	0.000000e+000	-2.000000e+002	0.000000e+000
1321950000.000	-1.353531e+001	-1.155070e+002	-1.413032e+000	-1.396465e+001	-2.000000e+002	0.000000e+000	-2.000000e+002	0.000000e+000
1336800000.000	-1.321525e+001	-1.551330e+002	-1.452035e+000	-4.616628e+001	-2.000000e+002	0.000000e+000	-2.000000e+002	0.000000e+000
1351650000.000	-1.320339e+001	1.659306e+002	-1.463469e+000	-7.845511e+001	-2.000000e+002	0.000000e+000	-2.000000e+002	0.000000e+000
1366500000.000	-1.348965e+001	1.294904e+002	-1.456549e+000	-1.109744e+002	-2.000000e+002	0.000000e+000	-2.000000e+002	0.000000e+000
1381350000.000	-1.396925e+001	9.697957e+001	-1.459172e+000	-1.435045e+002	-2.000000e+002	0.000000e+000	-2.000000e+002	0.000000e+000
1396200000.000	-1.434169e+001	6.836673e+001	-1.481945e+000	-1.761607e+002	-2.000000e+002	0.000000e+000	-2.000000e+002	0.000000e+000
1411050000.000	-1.430662e+001	4.098382e+001	-1.539325e+000	1.512379e+002	-2.000000e+002	0.000000e+000	-2.000000e+002	0.000000e+000
1425900000.000	-1.393961e+001	1.143153e+001	-1.609102e+000	1.188111e+002	-2.000000e+002	0.000000e+000	-2.000000e+002	0.000000e+000
1440750000.000	-1.358448e+001	-2.182614e+001	-1.668529e+000	8.649119e+001	-2.000000e+002	0.000000e+000	-2.000000e+002	0.000000e+000
1455600000.000	-1.347940e+001	-5.840000e+001	-1.702811e+000	5.424581e+001	-2.000000e+002	0.000000e+000	-2.000000e+002	0.000000e+000
1470450000.000	-1.367946e+001	-9.682434e+001	-1.705880e+000	2.200077e+001	-2.000000e+002	0.000000e+000	-2.000000e+002	0.000000e+000
1485300000.000	-1.417938e+001	-1.353710e+002	-1.691141e+000	-1.034632e+001	-2.000000e+002	0.000000e+000	-2.000000e+002	0.000000e+000
1500150000.000	-1.495477e+001	-1.718764e+002	-1.677596e+000	-4.282260e+001	-2.000000e+002	0.000000e+000	-2.000000e+002	0.000000e+000
1515000000.000	-1.585281e+001	1.557261e+002	-1.685836e+000	-7.556688e+001	-2.000000e+002	0.000000e+000	-2.000000e+002	0.000000e+000
1529850000.000	-1.645703e+001	1.285444e+002	-1.732099e+000	-1.083197e+002	-2.000000e+002	0.000000e+000	-2.000000e+002	0.000000e+000
1544700000.000	-1.631898e+001	1.034619e+002	-1.825797e+000	-1.410153e+002	-2.000000e+002	0.000000e+000	-2.000000e+002	0.000000e+000
1559550000.000	-1.564832e+001	7.555690e+001	-1.936483e+000	-1.734613e+002	-2.000000e+002	0.000000e+000	-2.000000e+002	0.000000e+000
1574400000.000	-1.507510e+001	4.298641e+001	-2.039482e+000	1.545337e+002	-2.000000e+002	0.000000e+000	-2.000000e+002	0.000000e+000
1589250000.000	-1.498302e+001	6.527031e+000	-2.098239e+000	1.226600e+002	-2.000000e+002	0.000000e+000	-2.000000e+002	0.000000e+000
1604100000.000	-1.551725e+001	-3.258448e+001	-2.098091e+000	9.066781e+001	-2.000000e+002	0.000000e+000	-2.000000e+002	0.000000e+000
1618950000.000	-1.669923e+001	-7.304892e+001	-2.054263e+000	5.853453e+001	-2.000000e+002	0.000000e+000	-2.000000e+002	0.000000e+000
1633800000.000	-1.853056e+001	-1.126464e+002	-2.005259e+000	2.601970e+001	-2.000000e+002	0.000000e+000	-2.000000e+002	0.000000e+000
1648650000.000	-2.092809e+001	-1.467381e+002	-1.989411e+000	-6.756473e+000	-2.000000e+002	0.000000e+000	-2.000000e+002	0.000000e+000
1663500000.000	-2.313291e+001	-1.686796e+002	-2.028734e+000	-3.962287e+001	-2.000000e+002	0.000000e+000	-2.000000e+002	0.000000e+000
1678350000.000	-2.305163e+001	1.784213e+002	-2.123491e+000	-7.240795e+001	-2.000000e+002	0.000000e+000	-2.000000e+002	0.000000e+000
1693200000.000	-2.112459e+001	1.574136e+002	-2.254704e+000	-1.048880e+002	-2.000000e+002	0.000000e+000	-2.000000e+002	0.000000e+000
1708050000.000	-1.949270e+001	1.274716e+002	-2.383768e+000	-1.369345e+002	-2.000000e+002	0.000000e+000	-2.000000e+002	0.000000e+000
1722900000.000	-1.877979e+001	9.447625e+001	-2.461012e+000	-1.686477e+002	-2.000000e+002	0.000000e+000	-2.000000e+002	0.000000e+000
1737750000.000	-1.903736e+001	6.178427e+001	-2.478017e+000	1.597200e+002	-2.000000e+002	0.000000e+000	-2.000000e+002	0.000000e+000
1752600000.000	-2.016482e+001	3.247910e+001	-2.445407e+000	1.279255e+002	-2.000000e+002	0.000000e+000	-2.000000e+002	0.000000e+000
1767450000.000	-2.168666e+001	1.067106e+001	-2.394127e+000	9.572040e+001	-2.000000e+002	0.000000e+000	-2.000000e+002	0.000000e+000
1782300000.000	-2.210415e+001	-3.191157e+000	-2.357104e+000	6.321323e+001	-2.000000e+002	0.000000e+000	-2.000000e+002	0.000000e+000
1797150000.000	-2.065243e+001	-2.123790e+001	-2.363900e+000	3.054518e+001	-2.000000e+002	0.000000e+000	-2.000000e+002	0.000000e+000
1812000000.000	-1.866859e+001	-4.957847e+001	-2.415330e+000	-2.169557e+000	-2.000000e+002	0.000000e+000	-2.000000e+002	0.000000e+000
1826850000.000	-1.708904e+001	-8.414600e+001	-2.497586e+000	-3.450606e+001	-2.000000e+002	0.000000e+000	-2.000000e+002	0.000000e+000
1841700000.000	-1.595791e+001	-1.208170e+002	-2.562976e+000	-6.660311e+001	-2.000000e+002	0.000000e+000	-2.000000e+002	0.000000e+000
1856550000.000	-1.519223e+001	-1.570476e+002	-2.604460e+000	-9.857315e+001	-2.000000e+002	0.000000e+000	-2.000000e+002	0.000000e+000
1871400000.000	-1.468004e+001	1.683848e+002	-2.608966e+000	-1.305028e+002	-2.000000e+002	0.000000e+000	-2.000000e+002	0.000000e+000
1886250000.000	-1.426618e+001	1.358052e+002	-2.588876e+000	-1.625647e+002	-2.000000e+002	0.000000e+000	-2.000000e+002	0.000000e+000
1901100000.000	-1.379610e+001	1.046971e+002	-2.556387e+000	1.651613e+002	-2.000000e+002	0.000000e+000	-2.000000e+002	0.000000e+000
1915950000.000	-1.319421e+001	7.380587e+001	-2.539005e+000	1.327257e+002	-2.000000e+002	0.000000e+000	-2.000000e+002	0.000000e+000
1930800000.000	-1.251351e+001	4.175128e+001	-2.546457e+000	1.002496e+002	-2.000000e+002	0.000000e+000	-2.000000e+002	0.000000e+000
1945650000.000	-1.187553e+001	8.106719e+000	-2.570445e+000	6.785289e+001	-2.000000e+002	0.000000e+000	-2.000000e+002	0.000000e+000
1960500000.000	-1.135922e+001	-2.666453e+001	-2.597527e+000	3.565228e+001	-2.000000e+002	0.000000e+000	-2.000000e+002	0.000000e+000
1975350000.000	-1.098624e+001	-6.190511e+001	-2.605341e+000	3.493398e+000	-2.000000e+002	0.000000e+000	-2.000000e+002	0.000000e+000
1990200000.000	-1.072355e+001	-9.678983e+001	-2.592763e+000	-2.870338e+001	-2.000000e+002	0.000000e+000	-2.000000e+002	0.000000e+000
2005050000.000	-1.049290e+001	-1.305547e+002	-2.566784e+000	-6.100803e+001	-2.000000e+002	0.000000e+000	-2.000000e+002	0.000000e+000
2019900000.000	-1.019722e+001	-1.633367e+002	-2.539328e+000	-9.357996e+001	-2.000000e+002	0.000000e+000	-2.000000e+002	0.000000e+000
2034750000.000	-9.778652e+000	1.644796e+002	-2.544031e+000	-1.262931e+002	-2.000000e+002	0.000000e+000	-2.000000e+002	0.000000e+000
2049600000.000	-9.251753e+000	1.319891e+002	-2.589387e+000	-1.589335e+002	-2.000000e+002	0.000000e+000	-2.000000e+002	0.000000e+000
2064450000.000	-8.744583e+000	9.859355e+001	-2.671890e+000	1.685551e+002	-2.000000e+002	0.000000e+000	-2.000000e+002	0.000000e+000
2079300000.000	-8.344500e+000	6.426145e+001	-2.757832e+000	1.363300e+002	-2.000000e+002	0.000000e+000	-2.000000e+002	0.000000e+000
2094150000.000	-8.106607e+000	2.923621e+001	-2.811733e+000	1.043354e+002	-2.000000e+002	0.000000e+000	-2.000000e+002	0.000000e+000
2109000000.000	-8.034814e+000	-5.915169e+000	-2.812881e+000	7.247018e+001	-2.000000e+002	0.000000e+000	-2.000000e+002	0.000000e+000
2123850000.000	-8.102819e+000	-4.078585e+001	-2.765047e+000	4.051691e+001	-2.000000e+002	0.000000e+000	-2.000000e+002	0.000000e+000
2138700000.000	-8.226163e+000	-7.473135e+001	-2.680055e+000	8.292597e+000	-2.000000e+002	0.000000e+000	-2.000000e+002	0.000000e+000
2153550000.000	-8.298657e+000	-1.075077e+002	-2.601384e+000	-2.431759e+001	-2.000000e+002	0.000000e+000	-2.000000e+002	0.000000e+000
2168400000.000	-8.204967e+000	-1.395365e+002	-2.570040e+000	-5.734639e+001	-2.000000e+002	0.000000e+000	-2.000000e+002	0.000000e+000
2183250000.000	-7.899353e+000	-1.716438e+002	-2.610319e+000	-9.059467e+001	-2.000000e+002	0.000000e+000	-2.000000e+002	0.000000e+000
2198100000.000	-7.474933e+000	1.554456e+002	-2.718508e+000	-1.235385e+002	-2.000000e+002	0.000000e+000	-2.000000e+002	0.000000e+000
2212950000.000	-7.054753e+000	1.214652e+002	-2.857517e+000	-1.559986e+002	-2.000000e+002	0.000000e+000	-2.000000e+002	0.000000e+000
2227800000.000	-6.752642e+000	8.671271e+001	-2.987484e+000	1.719885e+002	-2.000000e+002	0.000000e+000	-2.000000e+002	0.000000e+000
