! Device ID: PE43704
! Dir: z:\PE43704\PE43704_Char_1_20130516\PE43704\AMB\3p400V\14p50dB
! Serial: 14
! Insertion: A
! Impedance: 50 ohm
! Temp: Amb
! VDD: 3.400V
! Attenuation Step: 14.50dB
! IDD: 1.139731e-01mA
!

#  Hz  S   RI  R   50

1.000000E+007	4.933685E-002	1.988682E-004	1.690282E-001	-5.709404E-004	1.690592E-001	-5.304329E-004	-2.315793E-003	5.443639E-004
3.500000E+007	4.937963E-002	9.259579E-004	1.689865E-001	-1.992100E-003	1.689773E-001	-2.014502E-003	-2.072177E-003	1.878949E-003
6.000000E+007	4.926486E-002	1.699237E-003	1.688433E-001	-3.438405E-003	1.688061E-001	-3.452055E-003	-1.894313E-003	3.325599E-003
8.500000E+007	4.897857E-002	2.423248E-003	1.687538E-001	-4.861273E-003	1.687320E-001	-4.793069E-003	-1.980481E-003	4.542884E-003
1.100000E+008	4.869543E-002	3.076543E-003	1.686138E-001	-6.229838E-003	1.685448E-001	-6.165392E-003	-2.136969E-003	5.796307E-003
1.350000E+008	4.850335E-002	3.872036E-003	1.684800E-001	-7.581922E-003	1.684806E-001	-7.500284E-003	-2.102454E-003	7.036676E-003
1.600000E+008	4.808131E-002	4.638462E-003	1.683067E-001	-9.004894E-003	1.683645E-001	-8.884747E-003	-2.227201E-003	8.272092E-003
1.850000E+008	4.750387E-002	5.635579E-003	1.682274E-001	-1.020763E-002	1.682156E-001	-1.017236E-002	-2.521756E-003	9.730193E-003
2.100000E+008	4.688531E-002	6.432337E-003	1.680398E-001	-1.157131E-002	1.680458E-001	-1.149795E-002	-2.969855E-003	1.090776E-002
2.350000E+008	4.625105E-002	7.069315E-003	1.679054E-001	-1.289212E-002	1.678617E-001	-1.287736E-002	-3.379495E-003	1.195896E-002
2.600000E+008	4.568670E-002	7.707522E-003	1.677193E-001	-1.422079E-002	1.676965E-001	-1.419211E-002	-3.635027E-003	1.296973E-002
2.850000E+008	4.513816E-002	8.363584E-003	1.675955E-001	-1.552734E-002	1.675451E-001	-1.547208E-002	-4.069223E-003	1.419982E-002
3.100000E+008	4.448561E-002	9.131503E-003	1.674156E-001	-1.683610E-002	1.673757E-001	-1.683376E-002	-4.656191E-003	1.528197E-002
3.350000E+008	4.384441E-002	9.815393E-003	1.672447E-001	-1.809424E-002	1.672866E-001	-1.812605E-002	-5.298600E-003	1.632487E-002
3.600000E+008	4.320275E-002	1.043668E-002	1.671847E-001	-1.954197E-002	1.670175E-001	-1.971818E-002	-5.728014E-003	1.718648E-002
3.850000E+008	4.252589E-002	1.104828E-002	1.668970E-001	-2.113423E-002	1.664887E-001	-2.104258E-002	-6.104200E-003	1.811733E-002
4.100000E+008	4.156346E-002	1.186974E-002	1.661984E-001	-2.254904E-002	1.663076E-001	-2.197670E-002	-6.710728E-003	1.911499E-002
4.350000E+008	4.070959E-002	1.254791E-002	1.659703E-001	-2.331451E-002	1.662255E-001	-2.336994E-002	-7.552257E-003	2.014998E-002
4.600000E+008	3.969960E-002	1.306293E-002	1.659015E-001	-2.453731E-002	1.659009E-001	-2.463722E-002	-8.467719E-003	2.104204E-002
4.850000E+008	3.877815E-002	1.366169E-002	1.657120E-001	-2.590124E-002	1.656909E-001	-2.584181E-002	-9.232210E-003	2.178079E-002
5.100000E+008	3.774697E-002	1.420714E-002	1.655021E-001	-2.716454E-002	1.654247E-001	-2.710406E-002	-9.927961E-003	2.244880E-002
5.350000E+008	3.663242E-002	1.472787E-002	1.652956E-001	-2.851363E-002	1.652376E-001	-2.844788E-002	-1.072301E-002	2.332042E-002
5.600000E+008	3.552559E-002	1.504103E-002	1.649411E-001	-2.978626E-002	1.649233E-001	-2.974963E-002	-1.152015E-002	2.401584E-002
5.850000E+008	3.444544E-002	1.541964E-002	1.646336E-001	-3.109298E-002	1.646165E-001	-3.101184E-002	-1.237855E-002	2.473671E-002
6.100000E+008	3.336864E-002	1.573928E-002	1.643373E-001	-3.237449E-002	1.643482E-001	-3.235120E-002	-1.328097E-002	2.527860E-002
6.350000E+008	3.218717E-002	1.601729E-002	1.640344E-001	-3.364608E-002	1.639952E-001	-3.351696E-002	-1.421868E-002	2.585187E-002
6.600000E+008	3.092990E-002	1.630392E-002	1.636873E-001	-3.490559E-002	1.636706E-001	-3.486196E-002	-1.512346E-002	2.638690E-002
6.850000E+008	2.963487E-002	1.648228E-002	1.633485E-001	-3.611397E-002	1.633150E-001	-3.607675E-002	-1.604765E-002	2.687739E-002
7.100000E+008	2.847869E-002	1.662031E-002	1.630019E-001	-3.735275E-002	1.629440E-001	-3.734637E-002	-1.707791E-002	2.739184E-002
7.350000E+008	2.716842E-002	1.690834E-002	1.625801E-001	-3.865652E-002	1.625874E-001	-3.857996E-002	-1.804246E-002	2.782933E-002
7.600000E+008	2.568438E-002	1.714227E-002	1.622443E-001	-3.994164E-002	1.622571E-001	-3.981282E-002	-1.932914E-002	2.818313E-002
7.850000E+008	2.403927E-002	1.718611E-002	1.618680E-001	-4.114971E-002	1.618832E-001	-4.102534E-002	-2.040297E-002	2.829105E-002
8.100000E+008	2.251615E-002	1.695676E-002	1.614231E-001	-4.239338E-002	1.614148E-001	-4.229769E-002	-2.136617E-002	2.837845E-002
8.350000E+008	2.104506E-002	1.666316E-002	1.610632E-001	-4.353671E-002	1.609712E-001	-4.350846E-002	-2.222722E-002	2.867248E-002
8.600000E+008	1.973187E-002	1.650099E-002	1.606085E-001	-4.478060E-002	1.606073E-001	-4.477312E-002	-2.332485E-002	2.897472E-002
8.850000E+008	1.831904E-002	1.619968E-002	1.602040E-001	-4.602068E-002	1.602316E-001	-4.593483E-002	-2.472480E-002	2.919642E-002
9.100000E+008	1.698895E-002	1.586227E-002	1.598135E-001	-4.721808E-002	1.597324E-001	-4.710591E-002	-2.589817E-002	2.910940E-002
9.350000E+008	1.564421E-002	1.566910E-002	1.593327E-001	-4.843535E-002	1.593383E-001	-4.826219E-002	-2.700747E-002	2.894171E-002
9.600000E+008	1.418443E-002	1.557466E-002	1.590360E-001	-4.951184E-002	1.589369E-001	-4.954443E-002	-2.797145E-002	2.898523E-002
9.850000E+008	1.258630E-002	1.544422E-002	1.585042E-001	-5.081308E-002	1.585236E-001	-5.072829E-002	-2.933725E-002	2.926124E-002
1.010000E+009	1.077836E-002	1.503773E-002	1.580583E-001	-5.200697E-002	1.580670E-001	-5.197548E-002	-3.076269E-002	2.902114E-002
1.035000E+009	9.154666E-003	1.429086E-002	1.576577E-001	-5.322686E-002	1.576436E-001	-5.318991E-002	-3.212479E-002	2.856549E-002
1.060000E+009	7.672292E-003	1.364113E-002	1.572087E-001	-5.448694E-002	1.572040E-001	-5.432557E-002	-3.316803E-002	2.812719E-002
1.085000E+009	6.299107E-003	1.301141E-002	1.566932E-001	-5.570083E-002	1.567150E-001	-5.558555E-002	-3.413054E-002	2.785167E-002
1.110000E+009	4.827512E-003	1.247910E-002	1.561771E-001	-5.678904E-002	1.561988E-001	-5.678939E-002	-3.530474E-002	2.779173E-002
1.135000E+009	3.236244E-003	1.196878E-002	1.555703E-001	-5.811179E-002	1.556103E-001	-5.801023E-002	-3.677009E-002	2.750171E-002
1.160000E+009	1.687836E-003	1.112583E-002	1.550589E-001	-5.926042E-002	1.550720E-001	-5.912166E-002	-3.781196E-002	2.680227E-002
1.185000E+009	3.432427E-004	1.047758E-002	1.545280E-001	-6.038643E-002	1.545612E-001	-6.037780E-002	-3.872989E-002	2.623449E-002
1.210000E+009	-1.049557E-003	9.709545E-003	1.538905E-001	-6.154160E-002	1.539940E-001	-6.147556E-002	-3.965799E-002	2.585681E-002
1.235000E+009	-2.612636E-003	9.097822E-003	1.534430E-001	-6.275373E-002	1.534491E-001	-6.264054E-002	-4.070436E-002	2.572314E-002
1.260000E+009	-4.080422E-003	8.356197E-003	1.528058E-001	-6.397890E-002	1.529124E-001	-6.378560E-002	-4.205169E-002	2.519843E-002
1.285000E+009	-5.482673E-003	7.496828E-003	1.522634E-001	-6.499735E-002	1.522618E-001	-6.489234E-002	-4.307109E-002	2.421968E-002
1.310000E+009	-7.119044E-003	6.685258E-003	1.516225E-001	-6.611602E-002	1.517544E-001	-6.604150E-002	-4.390823E-002	2.356813E-002
1.335000E+009	-8.698886E-003	5.892188E-003	1.509953E-001	-6.715378E-002	1.510487E-001	-6.711327E-002	-4.468138E-002	2.289422E-002
1.360000E+009	-1.032538E-002	4.887337E-003	1.505205E-001	-6.837553E-002	1.505259E-001	-6.819104E-002	-4.566761E-002	2.233678E-002
1.385000E+009	-1.170900E-002	3.681062E-003	1.498341E-001	-6.944930E-002	1.498851E-001	-6.943712E-002	-4.654814E-002	2.161079E-002
1.410000E+009	-1.279666E-002	2.664246E-003	1.492351E-001	-7.055154E-002	1.493244E-001	-7.046400E-002	-4.738401E-002	2.088659E-002
1.435000E+009	-1.403942E-002	1.664592E-003	1.486168E-001	-7.165083E-002	1.486262E-001	-7.158723E-002	-4.818475E-002	1.997045E-002
1.460000E+009	-1.525155E-002	7.773882E-004	1.480441E-001	-7.272756E-002	1.480344E-001	-7.262640E-002	-4.874564E-002	1.915275E-002
1.485000E+009	-1.654729E-002	-1.738113E-004	1.474121E-001	-7.384752E-002	1.474526E-001	-7.375615E-002	-4.956346E-002	1.839258E-002
1.510000E+009	-1.762438E-002	-9.924920E-004	1.466759E-001	-7.497917E-002	1.467473E-001	-7.482916E-002	-5.001892E-002	1.754262E-002
1.535000E+009	-1.890126E-002	-1.647130E-003	1.461010E-001	-7.601913E-002	1.461661E-001	-7.593647E-002	-5.064587E-002	1.677739E-002
1.560000E+009	-2.050065E-002	-2.384708E-003	1.455054E-001	-7.703988E-002	1.454997E-001	-7.703992E-002	-5.127667E-002	1.590502E-002
1.585000E+009	-2.218242E-002	-3.423131E-003	1.446988E-001	-7.819251E-002	1.448006E-001	-7.806815E-002	-5.167008E-002	1.503542E-002
1.610000E+009	-2.369651E-002	-4.917724E-003	1.441590E-001	-7.925913E-002	1.441317E-001	-7.914272E-002	-5.209872E-002	1.415860E-002
1.635000E+009	-2.483597E-002	-6.555314E-003	1.433947E-001	-8.035211E-002	1.433729E-001	-8.019800E-002	-5.257685E-002	1.341985E-002
1.660000E+009	-2.539125E-002	-7.805655E-003	1.426991E-001	-8.136722E-002	1.427101E-001	-8.121249E-002	-5.310793E-002	1.267030E-002
1.685000E+009	-2.613943E-002	-8.599974E-003	1.419779E-001	-8.247578E-002	1.419909E-001	-8.242703E-002	-5.373852E-002	1.166299E-002
1.710000E+009	-2.692919E-002	-9.334379E-003	1.412389E-001	-8.338328E-002	1.413249E-001	-8.332075E-002	-5.379543E-002	1.062238E-002
1.735000E+009	-2.802176E-002	-1.018804E-002	1.405825E-001	-8.446697E-002	1.405780E-001	-8.438120E-002	-5.379537E-002	9.569963E-003
1.760000E+009	-2.921706E-002	-1.109894E-002	1.397965E-001	-8.562757E-002	1.397907E-001	-8.534993E-002	-5.367301E-002	8.883136E-003
1.785000E+009	-3.029065E-002	-1.196194E-002	1.390255E-001	-8.651219E-002	1.390970E-001	-8.640858E-002	-5.390321E-002	8.393049E-003
1.810000E+009	-3.152691E-002	-1.320997E-002	1.383231E-001	-8.755966E-002	1.384159E-001	-8.740517E-002	-5.429038E-002	7.581027E-003
1.835000E+009	-3.239821E-002	-1.463830E-002	1.375299E-001	-8.854506E-002	1.376002E-001	-8.844812E-002	-5.439747E-002	6.640589E-003
1.860000E+009	-3.301635E-002	-1.591862E-002	1.367404E-001	-8.954914E-002	1.368359E-001	-8.939677E-002	-5.410648E-002	5.563448E-003
1.885000E+009	-3.347252E-002	-1.710415E-002	1.359976E-001	-9.042056E-002	1.360060E-001	-9.037951E-002	-5.364462E-002	5.061771E-003
1.910000E+009	-3.401089E-002	-1.794134E-002	1.352843E-001	-9.143518E-002	1.352510E-001	-9.139400E-002	-5.367139E-002	4.711110E-003
1.935000E+009	-3.457136E-002	-1.885594E-002	1.344980E-001	-9.244330E-002	1.345206E-001	-9.238938E-002	-5.389356E-002	4.130811E-003
1.960000E+009	-3.529041E-002	-1.979808E-002	1.336346E-001	-9.344263E-002	1.337017E-001	-9.328350E-002	-5.391214E-002	3.272553E-003
1.985000E+009	-3.588438E-002	-2.079350E-002	1.328789E-001	-9.434101E-002	1.328380E-001	-9.435838E-002	-5.330876E-002	2.474740E-003
2.010000E+009	-3.645368E-002	-2.182329E-002	1.320478E-001	-9.538327E-002	1.320555E-001	-9.525266E-002	-5.273560E-002	2.053815E-003
2.035000E+009	-3.705954E-002	-2.282714E-002	1.312259E-001	-9.625475E-002	1.312734E-001	-9.621064E-002	-5.261706E-002	1.825487E-003
2.060000E+009	-3.747119E-002	-2.401323E-002	1.304051E-001	-9.719803E-002	1.304101E-001	-9.708985E-002	-5.275399E-002	1.369641E-003
2.085000E+009	-3.764898E-002	-2.499348E-002	1.295766E-001	-9.804073E-002	1.296337E-001	-9.807676E-002	-5.261640E-002	6.102395E-004
2.110000E+009	-3.780061E-002	-2.566112E-002	1.288441E-001	-9.904598E-002	1.288165E-001	-9.894567E-002	-5.210260E-002	-1.085371E-004
2.135000E+009	-3.834619E-002	-2.622871E-002	1.279007E-001	-1.000629E-001	1.279164E-001	-9.987618E-002	-5.150617E-002	-4.192254E-004
2.160000E+009	-3.894089E-002	-2.696100E-002	1.270666E-001	-1.008055E-001	1.271910E-001	-1.007881E-001	-5.123614E-002	-5.319820E-004
2.185000E+009	-3.931285E-002	-2.813581E-002	1.263381E-001	-1.017532E-001	1.262741E-001	-1.016830E-001	-5.112343E-002	-8.864705E-004
2.210000E+009	-3.948111E-002	-2.920970E-002	1.253182E-001	-1.026915E-001	1.253894E-001	-1.025294E-001	-5.114871E-002	-1.326722E-003
2.235000E+009	-3.956638E-002	-2.992904E-002	1.245024E-001	-1.035190E-001	1.245962E-001	-1.034857E-001	-5.087357E-002	-2.008017E-003
2.260000E+009	-3.961904E-002	-3.053948E-002	1.235674E-001	-1.043977E-001	1.236937E-001	-1.043691E-001	-5.016094E-002	-2.484911E-003
2.285000E+009	-4.005646E-002	-3.109926E-002	1.227450E-001	-1.051563E-001	1.228380E-001	-1.052232E-001	-4.953923E-002	-2.719927E-003
2.310000E+009	-4.018898E-002	-3.180814E-002	1.219312E-001	-1.062439E-001	1.219650E-001	-1.061309E-001	-4.910683E-002	-2.805953E-003
2.335000E+009	-4.048868E-002	-3.239036E-002	1.209781E-001	-1.069954E-001	1.210268E-001	-1.070229E-001	-4.891992E-002	-2.819014E-003
2.360000E+009	-4.063352E-002	-3.284278E-002	1.201162E-001	-1.077722E-001	1.201568E-001	-1.078294E-001	-4.875305E-002	-3.110946E-003
2.385000E+009	-4.102981E-002	-3.344426E-002	1.191836E-001	-1.086281E-001	1.192452E-001	-1.086308E-001	-4.830940E-002	-3.463749E-003
2.410000E+009	-4.140900E-002	-3.422818E-002	1.182174E-001	-1.094725E-001	1.182866E-001	-1.093547E-001	-4.768454E-002	-3.742835E-003
2.435000E+009	-4.140506E-002	-3.513961E-002	1.173652E-001	-1.102313E-001	1.173602E-001	-1.102360E-001	-4.703653E-002	-3.681582E-003
2.460000E+009	-4.137471E-002	-3.581598E-002	1.164087E-001	-1.110524E-001	1.165618E-001	-1.110603E-001	-4.687492E-002	-3.621089E-003
2.485000E+009	-4.134963E-002	-3.624554E-002	1.155762E-001	-1.118278E-001	1.156019E-001	-1.118591E-001	-4.678582E-002	-3.841807E-003
2.510000E+009	-4.154101E-002	-3.651779E-002	1.145430E-001	-1.127502E-001	1.145539E-001	-1.126592E-001	-4.649884E-002	-4.303137E-003
2.535000E+009	-4.174601E-002	-3.686285E-002	1.136341E-001	-1.134032E-001	1.136965E-001	-1.133745E-001	-4.548369E-002	-4.662248E-003
2.560000E+009	-4.174828E-002	-3.705865E-002	1.127101E-001	-1.142024E-001	1.127370E-001	-1.142192E-001	-4.447753E-002	-4.517344E-003
2.585000E+009	-4.221871E-002	-3.727309E-002	1.118035E-001	-1.149617E-001	1.118140E-001	-1.150299E-001	-4.401218E-002	-3.939358E-003
2.610000E+009	-4.265910E-002	-3.789543E-002	1.108539E-001	-1.156951E-001	1.108842E-001	-1.157809E-001	-4.392371E-002	-3.754852E-003
2.635000E+009	-4.303692E-002	-3.875765E-002	1.098361E-001	-1.165478E-001	1.100084E-001	-1.165764E-001	-4.362994E-002	-3.995726E-003
2.660000E+009	-4.258782E-002	-3.952802E-002	1.088484E-001	-1.171455E-001	1.089499E-001	-1.171479E-001	-4.267923E-002	-4.241841E-003
2.685000E+009	-4.211136E-002	-3.953392E-002	1.079380E-001	-1.180208E-001	1.080829E-001	-1.181057E-001	-4.182874E-002	-3.754848E-003
2.710000E+009	-4.217776E-002	-3.937546E-002	1.067845E-001	-1.186938E-001	1.070118E-001	-1.187212E-001	-4.142514E-002	-3.082979E-003
2.735000E+009	-4.270608E-002	-3.929586E-002	1.059023E-001	-1.194119E-001	1.060925E-001	-1.192791E-001	-4.131298E-002	-2.635439E-003
2.760000E+009	-4.320113E-002	-3.974756E-002	1.049033E-001	-1.201232E-001	1.051254E-001	-1.200963E-001	-4.099109E-002	-2.843813E-003
2.785000E+009	-4.298945E-002	-4.014138E-002	1.040022E-001	-1.208088E-001	1.040982E-001	-1.206691E-001	-4.008066E-002	-2.947759E-003
2.810000E+009	-4.279798E-002	-4.027339E-002	1.031323E-001	-1.215097E-001	1.031367E-001	-1.215322E-001	-3.885916E-002	-2.301216E-003
2.835000E+009	-4.270562E-002	-3.999557E-002	1.018680E-001	-1.222657E-001	1.020099E-001	-1.221515E-001	-3.812081E-002	-1.341978E-003
2.860000E+009	-4.326038E-002	-3.992481E-002	1.010453E-001	-1.228410E-001	1.010197E-001	-1.229090E-001	-3.786495E-002	-9.054038E-004
2.885000E+009	-4.341897E-002	-4.024440E-002	9.975345E-002	-1.235479E-001	9.995726E-002	-1.234948E-001	-3.734508E-002	-6.760814E-004
2.910000E+009	-4.347141E-002	-4.071409E-002	9.891328E-002	-1.241715E-001	9.900983E-002	-1.239831E-001	-3.628083E-002	-5.343243E-004
2.935000E+009	-4.339538E-002	-4.065551E-002	9.790921E-002	-1.248110E-001	9.805969E-002	-1.247601E-001	-3.522652E-002	3.224255E-004
2.960000E+009	-4.346047E-002	-4.053418E-002	9.672511E-002	-1.254183E-001	9.681778E-002	-1.253012E-001	-3.462647E-002	1.464751E-003
2.985000E+009	-4.355208E-002	-4.061211E-002	9.574440E-002	-1.260781E-001	9.594042E-002	-1.259643E-001	-3.461779E-002	2.200995E-003
3.010000E+009	-4.338899E-002	-4.050343E-002	9.474643E-002	-1.265843E-001	9.481021E-002	-1.264551E-001	-3.420766E-002	2.338635E-003
3.035000E+009	-4.329897E-002	-4.015722E-002	9.375008E-002	-1.271637E-001	9.388351E-002	-1.270423E-001	-3.352765E-002	2.720673E-003
3.060000E+009	-4.338040E-002	-3.951930E-002	9.274700E-002	-1.278056E-001	9.285744E-002	-1.277566E-001	-3.252554E-002	3.498320E-003
3.085000E+009	-4.375478E-002	-3.923378E-002	9.159894E-002	-1.282817E-001	9.176808E-002	-1.282035E-001	-3.191168E-002	4.519410E-003
3.110000E+009	-4.408777E-002	-3.908101E-002	9.077636E-002	-1.289419E-001	9.089060E-002	-1.287913E-001	-3.168982E-002	5.485069E-003
3.135000E+009	-4.413450E-002	-3.914805E-002	8.964886E-002	-1.294169E-001	8.961356E-002	-1.293794E-001	-3.162028E-002	6.195152E-003
3.160000E+009	-4.398999E-002	-3.872778E-002	8.858733E-002	-1.299697E-001	8.885469E-002	-1.299966E-001	-3.107314E-002	6.870708E-003
3.185000E+009	-4.432394E-002	-3.817947E-002	8.743206E-002	-1.306668E-001	8.764126E-002	-1.306670E-001	-3.095302E-002	7.627747E-003
3.210000E+009	-4.456348E-002	-3.795780E-002	8.643848E-002	-1.310021E-001	8.655097E-002	-1.308682E-001	-3.081807E-002	8.624718E-003
3.235000E+009	-4.447437E-002	-3.776519E-002	8.547874E-002	-1.315387E-001	8.571610E-002	-1.314324E-001	-3.079024E-002	9.546704E-003
3.260000E+009	-4.415135E-002	-3.728538E-002	8.432770E-002	-1.320123E-001	8.443470E-002	-1.319991E-001	-3.125609E-002	1.046211E-002
3.285000E+009	-4.385749E-002	-3.624948E-002	8.348294E-002	-1.324396E-001	8.350512E-002	-1.323981E-001	-3.144386E-002	1.095216E-002
3.310000E+009	-4.465324E-002	-3.524411E-002	8.229140E-002	-1.331680E-001	8.230905E-002	-1.331218E-001	-3.176382E-002	1.156943E-002
3.335000E+009	-4.538823E-002	-3.465089E-002	8.125345E-002	-1.335489E-001	8.128574E-002	-1.334895E-001	-3.161850E-002	1.233253E-002
3.360000E+009	-4.608702E-002	-3.439180E-002	8.003328E-002	-1.339882E-001	8.025554E-002	-1.339603E-001	-3.184921E-002	1.339555E-002
3.385000E+009	-4.630558E-002	-3.417849E-002	7.906984E-002	-1.344130E-001	7.918163E-002	-1.342294E-001	-3.249351E-002	1.461752E-002
3.410000E+009	-4.626809E-002	-3.347831E-002	7.825698E-002	-1.348522E-001	7.825434E-002	-1.347037E-001	-3.323810E-002	1.542866E-002
3.435000E+009	-4.663931E-002	-3.286973E-002	7.706008E-002	-1.353747E-001	7.700997E-002	-1.353383E-001	-3.405138E-002	1.603241E-002
3.460000E+009	-4.670606E-002	-3.219417E-002	7.587784E-002	-1.357286E-001	7.610302E-002	-1.356199E-001	-3.410306E-002	1.660779E-002
3.485000E+009	-4.713954E-002	-3.131468E-002	7.478535E-002	-1.362020E-001	7.494578E-002	-1.361970E-001	-3.454824E-002	1.770926E-002
3.510000E+009	-4.752673E-002	-3.016641E-002	7.381971E-002	-1.365683E-001	7.368067E-002	-1.364923E-001	-3.531546E-002	1.916893E-002
3.535000E+009	-4.791937E-002	-2.910455E-002	7.272424E-002	-1.369686E-001	7.283878E-002	-1.369851E-001	-3.664938E-002	2.001611E-002
3.560000E+009	-4.864681E-002	-2.803709E-002	7.166327E-002	-1.373945E-001	7.173807E-002	-1.372905E-001	-3.788257E-002	2.043600E-002
3.585000E+009	-4.905151E-002	-2.748972E-002	7.066662E-002	-1.378757E-001	7.080605E-002	-1.376150E-001	-3.824115E-002	2.088329E-002
3.610000E+009	-4.973064E-002	-2.671153E-002	6.950531E-002	-1.382939E-001	6.972868E-002	-1.384942E-001	-3.852982E-002	2.201513E-002
3.635000E+009	-5.002735E-002	-2.574646E-002	6.831244E-002	-1.385721E-001	6.849827E-002	-1.386526E-001	-3.917289E-002	2.334014E-002
3.660000E+009	-5.062949E-002	-2.474270E-002	6.724588E-002	-1.390883E-001	6.744173E-002	-1.389945E-001	-4.058942E-002	2.447401E-002
3.685000E+009	-5.106101E-002	-2.375431E-002	6.604272E-002	-1.392191E-001	6.617957E-002	-1.393949E-001	-4.174501E-002	2.501403E-002
3.710000E+009	-5.161327E-002	-2.271795E-002	6.516595E-002	-1.396354E-001	6.512710E-002	-1.395622E-001	-4.233733E-002	2.543445E-002
3.735000E+009	-5.216798E-002	-2.161425E-002	6.401911E-002	-1.399504E-001	6.420096E-002	-1.400015E-001	-4.293783E-002	2.648007E-002
3.760000E+009	-5.270969E-002	-2.058937E-002	6.297220E-002	-1.402834E-001	6.306489E-002	-1.404150E-001	-4.366300E-002	2.757478E-002
