!Keysight Technologies,N5242A,MY48320679,A.10.49.08
!Date: Tuesday, April 23, 2019 15:10:27
!Correction: S11(Full 2 Port(1,2)) 
!S21(Full 2 Port(1,2)) 
!S12(Full 2 Port(1,2)) 
!S22(Full 2 Port(1,2)) 
!S2P File: Measurements: S11, S21, S12, S22:
# Hz S  dB   R 50
10000000	-28.269140	-179.395780	-1.938735	-0.579374	-1.940066	-0.729934	-28.317015	-178.701050
20000000	-28.063488	176.744570	-1.940491	-1.349291	-1.940999	-1.383034	-27.883678	177.025410
30000000	-28.440485	174.753420	-1.939465	-2.124001	-1.939302	-2.147307	-28.237518	175.149400
40000000	-28.686497	174.516080	-1.937047	-2.856329	-1.938420	-2.882872	-28.555798	174.657700
50000000	-28.745617	173.645190	-1.934971	-3.615471	-1.935467	-3.649198	-28.692789	174.208020
60000000	-28.836941	171.900800	-1.932142	-4.362604	-1.933457	-4.386698	-28.625137	172.337310
70000000	-29.015135	170.341230	-1.930954	-5.100066	-1.932572	-5.118588	-28.716436	170.719470
80000000	-29.138271	169.160720	-1.930197	-5.815610	-1.931785	-5.841327	-28.833361	169.411880
90000000	-29.146160	168.407710	-1.928864	-6.557119	-1.930624	-6.586436	-28.901552	168.738370
100000000	-29.073668	167.170030	-1.927751	-7.286157	-1.929156	-7.310147	-28.876505	167.847090
110000000	-29.101284	165.511080	-1.926118	-8.011663	-1.927935	-8.036304	-28.903984	166.812680
120000000	-29.179529	164.343030	-1.925228	-8.727752	-1.927502	-8.755679	-28.984417	166.003230
130000000	-29.264782	163.515470	-1.924754	-9.438158	-1.926667	-9.472106	-29.085814	165.460360
140000000	-29.305311	162.688630	-1.923839	-10.159017	-1.926506	-10.191863	-29.160313	164.987900
150000000	-29.414061	161.499790	-1.922848	-10.875803	-1.925403	-10.911234	-29.254028	163.887700
160000000	-29.493881	160.163150	-1.922152	-11.595947	-1.924833	-11.628386	-29.380257	162.706540
170000000	-29.631659	159.170900	-1.921743	-12.314065	-1.924293	-12.342247	-29.520567	161.520200
180000000	-29.723053	158.262340	-1.920830	-13.030536	-1.923734	-13.064647	-29.630503	160.526540
190000000	-29.769917	157.159790	-1.919788	-13.745575	-1.922950	-13.782490	-29.652533	159.360180
200000000	-29.832367	155.861500	-1.919390	-14.461176	-1.922357	-14.500289	-29.652437	157.853820
210000000	-29.939991	154.491470	-1.918836	-15.178143	-1.921476	-15.218908	-29.679731	156.200850
220000000	-30.022768	153.570850	-1.918271	-15.890513	-1.921797	-15.936372	-29.690788	154.700380
230000000	-30.104519	152.790480	-1.918240	-16.605637	-1.920713	-16.649765	-29.746239	153.547270
240000000	-30.125259	152.462430	-1.916883	-17.319370	-1.920651	-17.359333	-29.854492	153.165450
250000000	-30.125776	150.446330	-1.916539	-18.032475	-1.919470	-18.076168	-29.771044	152.400560
260000000	-30.315691	149.803420	-1.914613	-18.744757	-1.918224	-18.787825	-29.991121	151.522770
270000000	-30.318390	148.718280	-1.914247	-19.452822	-1.918032	-19.505615	-30.038422	151.175900
280000000	-30.378036	147.471890	-1.914596	-20.162701	-1.917737	-20.213236	-30.072056	150.312900
290000000	-30.437580	146.216480	-1.914374	-20.873085	-1.917903	-20.925104	-30.150404	149.070270
300000000	-30.488354	145.256640	-1.913698	-21.584717	-1.917027	-21.633116	-30.243456	147.761570
310000000	-30.545626	144.254380	-1.913647	-22.295666	-1.916758	-22.341417	-30.332310	146.547090
320000000	-30.615734	143.572710	-1.913666	-23.001408	-1.916503	-23.052406	-30.420734	145.296940
330000000	-30.642317	142.788420	-1.913430	-23.713108	-1.916332	-23.763578	-30.435133	144.155720
340000000	-30.637741	142.113130	-1.912892	-24.423529	-1.915797	-24.475231	-30.398180	143.484990
350000000	-30.759949	141.049850	-1.911700	-25.132870	-1.914993	-25.185736	-30.286901	142.140580
360000000	-30.884327	141.121110	-1.911957	-25.839882	-1.915107	-25.896000	-30.312483	140.950060
370000000	-30.882721	140.655490	-1.911423	-26.554226	-1.914473	-26.602779	-30.321606	140.323820
380000000	-30.943275	139.637160	-1.911759	-27.261223	-1.914500	-27.313599	-30.330727	139.503040
390000000	-31.003981	138.753450	-1.911090	-27.970243	-1.914099	-28.023619	-30.393528	138.709630
400000000	-31.055861	137.905380	-1.912024	-28.675966	-1.914449	-28.729517	-30.452286	138.209350
410000000	-31.090824	136.905320	-1.911295	-29.385271	-1.914093	-29.440561	-30.504904	137.746670
420000000	-31.119780	135.960950	-1.910452	-30.096874	-1.913716	-30.150074	-30.551159	137.083850
430000000	-31.180359	134.805620	-1.911003	-30.802275	-1.913700	-30.855694	-30.578928	136.310790
440000000	-31.226467	133.611970	-1.910818	-31.505816	-1.913821	-31.565689	-30.628254	135.258010
450000000	-31.243114	132.482220	-1.910143	-32.214626	-1.913850	-32.275093	-30.675589	134.302000
460000000	-31.293188	131.413800	-1.909983	-32.918068	-1.913816	-32.978897	-30.721495	133.265790
470000000	-31.309071	130.748870	-1.910146	-33.624954	-1.913540	-33.683907	-30.758497	132.600850
480000000	-31.297138	129.891510	-1.909153	-34.332764	-1.912605	-34.390377	-30.775387	132.373570
490000000	-31.343767	128.918990	-1.908832	-35.035164	-1.912146	-35.099094	-30.703058	131.934450
500000000	-31.368565	128.371670	-1.909460	-35.743683	-1.912219	-35.809952	-30.707621	130.841750
510000000	-31.342222	127.278790	-1.907781	-36.454029	-1.911834	-36.517086	-30.817974	130.012330
520000000	-31.289762	125.944140	-1.908470	-37.167145	-1.911647	-37.223911	-30.891506	129.401310
530000000	-31.289440	124.911620	-1.908419	-37.872181	-1.911052	-37.931580	-30.968977	128.907910
540000000	-31.288235	124.175250	-1.908465	-38.579361	-1.910913	-38.640053	-31.072220	128.513820
550000000	-31.280050	123.476980	-1.907388	-39.283913	-1.910195	-39.348988	-31.134619	128.308870
560000000	-31.307219	122.791710	-1.907039	-39.993214	-1.909426	-40.058334	-31.149616	127.790450
570000000	-31.306442	122.096210	-1.906796	-40.702862	-1.908636	-40.765999	-31.191023	126.962620
580000000	-31.297470	121.337580	-1.905992	-41.406879	-1.908880	-41.479153	-31.236303	126.062870
590000000	-31.373726	120.269430	-1.906277	-42.117367	-1.909106	-42.191631	-31.263872	125.279720
600000000	-31.514219	119.946720	-1.906275	-42.825180	-1.910749	-42.897476	-31.314081	124.377720
610000000	-31.571695	119.842270	-1.906636	-43.529480	-1.911280	-43.595081	-31.415636	123.823740
620000000	-31.547173	119.174780	-1.907083	-44.232399	-1.910581	-44.297600	-31.433989	123.619380
630000000	-31.586582	118.084010	-1.907116	-44.933311	-1.910944	-45.004570	-31.386442	123.119420
640000000	-31.608854	117.273670	-1.906730	-45.638584	-1.911034	-45.704742	-31.388580	122.190010
650000000	-31.592865	116.317070	-1.906728	-46.341003	-1.910711	-46.410778	-31.412184	121.541220
660000000	-31.633230	115.459770	-1.906360	-47.048260	-1.909904	-47.116104	-31.482105	121.119160
670000000	-31.660587	114.736470	-1.906153	-47.751377	-1.909906	-47.819431	-31.556967	120.847930
680000000	-31.658739	114.268400	-1.906051	-48.452785	-1.909186	-48.525616	-31.649715	120.558990
690000000	-31.615643	113.607890	-1.905717	-49.158604	-1.909215	-49.229279	-31.724419	120.176810
700000000	-31.642708	112.728580	-1.905656	-49.865051	-1.908598	-49.936348	-31.764301	119.413190
710000000	-31.658491	111.932270	-1.905598	-50.568569	-1.908648	-50.643528	-31.805777	118.628460
720000000	-31.707991	111.239710	-1.905265	-51.275555	-1.909089	-51.350513	-31.846670	117.696800
730000000	-31.755529	110.785390	-1.905079	-51.979641	-1.908708	-52.057602	-31.863955	117.122890
740000000	-31.810608	110.369800	-1.905243	-52.688694	-1.908608	-52.761936	-31.867290	116.561490
750000000	-31.828053	109.841970	-1.904924	-53.391438	-1.908739	-53.467316	-31.880383	115.847270
760000000	-31.851341	109.143440	-1.904670	-54.094631	-1.908518	-54.171261	-31.925909	115.455580
770000000	-31.895943	108.736500	-1.904825	-54.795597	-1.908359	-54.870499	-31.905830	115.385640
780000000	-31.910366	108.845800	-1.905243	-55.503017	-1.907495	-55.572792	-31.878645	115.382900
790000000	-31.846363	108.964710	-1.904113	-56.202152	-1.907675	-56.278145	-31.890806	115.332020
800000000	-31.784393	108.562970	-1.903596	-56.903755	-1.907493	-56.980637	-31.898062	115.402510
810000000	-31.778982	107.892130	-1.903981	-57.610638	-1.907625	-57.687641	-31.944786	114.938680
820000000	-31.814457	107.025820	-1.904314	-58.315556	-1.907273	-58.387005	-32.018162	114.308130
830000000	-31.840767	106.560030	-1.903708	-59.015724	-1.906620	-59.090202	-32.098789	113.750290
840000000	-31.850267	106.307440	-1.903468	-59.721500	-1.907249	-59.788818	-32.178852	113.114810
850000000	-31.870720	106.186200	-1.903171	-60.420940	-1.906352	-60.496460	-32.178368	112.603620
860000000	-31.865103	105.785390	-1.903168	-61.126610	-1.906564	-61.198769	-32.175400	112.000280
870000000	-31.878260	105.282160	-1.902849	-61.827168	-1.906294	-61.900490	-32.165272	111.303370
880000000	-31.885757	104.599720	-1.902691	-62.531906	-1.905968	-62.603043	-32.156273	110.411600
890000000	-31.862982	103.786000	-1.902245	-63.230778	-1.905774	-63.305588	-32.171959	109.588390
900000000	-31.870592	102.918430	-1.902908	-63.934971	-1.905486	-64.014938	-32.180771	109.394780
910000000	-31.887554	103.213290	-1.902195	-64.642609	-1.905437	-64.718674	-32.093529	109.963640
920000000	-31.806406	103.992600	-1.901482	-65.347488	-1.904677	-65.423103	-32.038422	110.096520
930000000	-31.692381	104.133670	-1.901728	-66.049828	-1.904775	-66.130875	-32.021400	109.967760
940000000	-31.600010	103.612280	-1.901366	-66.753014	-1.906114	-66.840263	-32.043213	109.657170
950000000	-31.619829	102.975090	-1.901503	-67.456161	-1.906064	-67.538185	-32.089066	109.090530
960000000	-31.647478	102.940480	-1.901737	-68.165024	-1.906640	-68.238983	-32.132946	108.378070
970000000	-31.675653	103.342130	-1.901101	-68.868500	-1.906537	-68.939880	-32.169594	107.911870
980000000	-31.678093	103.757060	-1.902021	-69.567062	-1.906119	-69.638268	-32.170345	107.734720
990000000	-31.699312	103.439830	-1.902014	-70.266502	-1.905637	-70.348885	-32.107384	107.346950
1000000000	-31.763981	102.763020	-1.902179	-70.969391	-1.906478	-71.046249	-32.048092	106.623100
1010000000	-31.823988	101.747800	-1.901879	-71.675987	-1.905803	-71.745514	-32.015324	105.093310
1020000000	-31.849926	101.113780	-1.901215	-72.381210	-1.905962	-72.448753	-32.018410	104.124620
1030000000	-31.858780	100.692950	-1.901408	-73.083977	-1.906116	-73.151825	-32.012959	103.787060
1040000000	-31.811914	100.746860	-1.900819	-73.788071	-1.905188	-73.859436	-31.988842	104.117080
1050000000	-31.794842	100.654230	-1.901053	-74.489540	-1.904767	-74.565910	-31.971874	104.560830
1060000000	-31.789452	100.544630	-1.900572	-75.193977	-1.904460	-75.269188	-31.959238	104.428400
1070000000	-31.758720	99.762032	-1.900378	-75.895538	-1.904447	-75.973671	-31.964846	103.626340
1080000000	-31.716225	98.525040	-1.900029	-76.597786	-1.904487	-76.679504	-32.007797	102.284210
1090000000	-31.689054	97.758751	-1.899734	-77.303391	-1.903928	-77.378716	-32.007221	101.593000
1100000000	-31.662542	97.880989	-1.899039	-78.013306	-1.903685	-78.082710	-31.954742	101.539870
1110000000	-31.634361	98.578667	-1.898898	-78.719925	-1.903659	-78.790863	-31.849815	101.766210
1120000000	-31.615385	99.290047	-1.898445	-79.423958	-1.902693	-79.495224	-31.754637	101.872720
1130000000	-31.618034	99.475235	-1.898510	-80.128235	-1.902652	-80.201050	-31.683825	101.549930
1140000000	-31.625975	99.428413	-1.897681	-80.832458	-1.902621	-80.905670	-31.636562	100.875380
1150000000	-31.609034	99.575104	-1.897936	-81.538277	-1.902241	-81.604416	-31.605904	100.175930
1160000000	-31.590801	99.896042	-1.897173	-82.243713	-1.901439	-82.310814	-31.573574	99.760063
1170000000	-31.567070	100.268270	-1.896851	-82.948540	-1.901145	-83.014229	-31.583862	99.769844
1180000000	-31.632010	100.468280	-1.897385	-83.657242	-1.900808	-83.718063	-31.637754	99.734818
1190000000	-31.776754	100.239530	-1.896958	-84.359741	-1.900819	-84.424744	-31.740980	99.493004
1200000000	-31.912064	99.861549	-1.896710	-85.057503	-1.900983	-85.127701	-31.838188	98.679001
1210000000	-31.997299	99.247482	-1.897090	-85.761871	-1.900346	-85.830307	-31.910095	97.522011
1220000000	-32.041023	98.688354	-1.896910	-86.464661	-1.899917	-86.534065	-31.922892	96.622116
1230000000	-32.078098	98.744118	-1.896219	-87.169960	-1.900177	-87.241005	-31.924311	96.387894
1240000000	-32.108940	99.048378	-1.896215	-87.878510	-1.898924	-87.945236	-31.882401	96.478767
1250000000	-32.138489	98.672409	-1.896054	-88.583710	-1.898943	-88.652191	-31.845444	96.131035
1260000000	-32.165653	97.934456	-1.895241	-89.292839	-1.899053	-89.356514	-31.850985	95.370567
1270000000	-32.185902	97.046600	-1.895259	-89.996910	-1.899225	-90.061493	-31.864908	94.304405
1280000000	-32.196358	96.644333	-1.894704	-90.700714	-1.898493	-90.765617	-31.890928	93.680374
1290000000	-32.169514	97.125748	-1.894551	-91.403389	-1.898516	-91.470772	-31.906462	93.499611
1300000000	-32.104652	97.869362	-1.894296	-92.107948	-1.898040	-92.176666	-31.899696	93.622627
1310000000	-32.089016	97.995041	-1.894340	-92.815590	-1.898015	-92.884552	-31.944729	93.547859
1320000000	-32.136333	97.759941	-1.893879	-93.519592	-1.898332	-93.590080	-31.992521	93.088173
1330000000	-32.247753	97.299271	-1.892906	-94.228424	-1.899141	-94.293159	-32.038864	92.422012
1340000000	-32.340778	97.565285	-1.893157	-94.931435	-1.899058	-94.998680	-32.057297	91.897896
1350000000	-32.375603	98.263176	-1.893328	-95.636009	-1.899148	-95.708740	-32.054512	91.440750
1360000000	-32.367435	98.945389	-1.893850	-96.344513	-1.899376	-96.406273	-32.032669	91.161896
1370000000	-32.355713	99.060081	-1.893480	-97.048195	-1.899084	-97.106552	-31.999315	90.695343
1380000000	-32.382587	98.343109	-1.894161	-97.750404	-1.899087	-97.807220	-31.987854	89.782204
1390000000	-32.445518	97.108292	-1.893633	-98.454750	-1.898694	-98.503151	-31.978151	88.815193
1400000000	-32.480003	95.963348	-1.893592	-99.155350	-1.898604	-99.210159	-31.956305	87.840202
1410000000	-32.493374	95.690552	-1.893390	-99.856491	-1.898197	-99.912613	-31.961245	87.744339
1420000000	-32.473114	96.219109	-1.893095	-100.559400	-1.897559	-100.612830	-31.950771	88.222107
1430000000	-32.399647	97.138504	-1.892713	-101.260810	-1.897102	-101.317180	-31.934530	88.943115
1440000000	-32.356148	96.904259	-1.893031	-101.961520	-1.896465	-102.021680	-31.948734	88.800819
1450000000	-32.385807	95.611473	-1.892293	-102.668850	-1.896890	-102.720720	-32.017670	87.791100
1460000000	-32.468601	94.310768	-1.892038	-103.370260	-1.896124	-103.422460	-32.091099	86.523643
1470000000	-32.532188	93.776413	-1.890956	-104.072160	-1.895233	-104.129710	-32.127716	85.857353
1480000000	-32.534286	94.250618	-1.890694	-104.779530	-1.895483	-104.837650	-32.067421	85.726448
1490000000	-32.462578	95.193108	-1.890531	-105.485520	-1.895662	-105.542590	-31.954739	85.891296
1500000000	-32.406010	95.544579	-1.889615	-106.191090	-1.895294	-106.245870	-31.875103	85.555344
1510000000	-32.405148	95.055695	-1.888243	-106.898380	-1.893661	-106.947200	-31.840830	84.342964
1520000000	-32.428288	94.402092	-1.888883	-107.602050	-1.893043	-107.645450	-31.833691	83.515572
1530000000	-32.414585	93.689026	-1.888305	-108.302190	-1.892669	-108.350140	-31.846405	83.110878
1540000000	-32.400612	93.164810	-1.887941	-109.002970	-1.892345	-109.055240	-31.784288	83.185699
1550000000	-32.414089	92.971535	-1.888005	-109.706950	-1.891556	-109.756850	-31.726513	83.697067
1560000000	-32.425117	92.870224	-1.887264	-110.412570	-1.891610	-110.461370	-31.714893	83.894127
1570000000	-32.455196	92.976112	-1.887016	-111.115040	-1.891079	-111.164410	-31.739746	84.149651
1580000000	-32.418571	92.679260	-1.886552	-111.820440	-1.890125	-111.874690	-31.747723	84.195770
1590000000	-32.390499	92.503731	-1.886350	-112.520260	-1.889587	-112.577340	-31.752302	84.218140
1600000000	-32.318020	92.379967	-1.885767	-113.226660	-1.889066	-113.283300	-31.721535	84.495636
1610000000	-32.254459	92.276451	-1.886036	-113.928700	-1.888926	-113.988810	-31.671936	84.602669
1620000000	-32.206623	91.656769	-1.885739	-114.635330	-1.888697	-114.696370	-31.627180	84.340660
1630000000	-32.245190	90.505348	-1.885121	-115.338260	-1.888291	-115.397100	-31.626726	83.562759
1640000000	-32.348286	89.087234	-1.884575	-116.040370	-1.888584	-116.098750	-31.655344	82.382690
1650000000	-32.377777	88.445801	-1.884643	-116.741000	-1.888355	-116.805620	-31.672169	81.677940
1660000000	-32.240063	88.977066	-1.884620	-117.440500	-1.888158	-117.509610	-31.610210	82.394058
1670000000	-32.013218	89.646919	-1.884555	-118.141750	-1.888405	-118.213020	-31.494263	83.739906
1680000000	-31.800373	89.555389	-1.883899	-118.845920	-1.888559	-118.917090	-31.340746	85.045387
1690000000	-31.771711	88.794586	-1.883139	-119.551420	-1.888442	-119.618580	-31.257362	85.440453
1700000000	-31.875610	87.807007	-1.882507	-120.255320	-1.888739	-120.321380	-31.283279	85.330505
1710000000	-31.993702	87.025436	-1.883024	-120.960330	-1.889055	-121.026570	-31.372383	84.979729
1720000000	-32.002434	86.903160	-1.882338	-121.664570	-1.889595	-121.727560	-31.433445	85.125458
1730000000	-31.917143	86.862877	-1.882891	-122.366650	-1.889363	-122.425650	-31.423489	85.432159
1740000000	-31.798853	86.535904	-1.883065	-123.070270	-1.889650	-123.126280	-31.396246	85.748726
1750000000	-31.773062	85.867897	-1.883404	-123.772970	-1.889229	-123.824420	-31.390612	85.612190
1760000000	-31.820091	84.839432	-1.882386	-124.472550	-1.888969	-124.524740	-31.430460	84.913567
1770000000	-31.895283	83.753906	-1.882786	-125.169710	-1.888666	-125.222190	-31.485441	84.017731
1780000000	-31.911671	83.133698	-1.882444	-125.872000	-1.888553	-125.921790	-31.477194	83.458389
1790000000	-31.830385	83.321938	-1.882405	-126.570180	-1.888285	-126.623950	-31.393076	83.536644
1800000000	-31.674826	83.825043	-1.882575	-127.270680	-1.887523	-127.327800	-31.277382	84.029488
1810000000	-31.529533	83.731865	-1.881560	-127.976010	-1.886867	-128.030790	-31.183805	84.635300
1820000000	-31.503130	82.850609	-1.880572	-128.679870	-1.886347	-128.728640	-31.146858	84.850540
1830000000	-31.592339	81.841232	-1.880697	-129.378940	-1.885361	-129.430270	-31.150566	84.810257
1840000000	-31.715553	81.059631	-1.880655	-130.080810	-1.885218	-130.131470	-31.153500	84.449921
1850000000	-31.733438	80.881790	-1.879485	-130.780900	-1.885018	-130.835590	-31.145138	84.106323
1860000000	-31.654137	80.995049	-1.879361	-131.487150	-1.884027	-131.539400	-31.110258	84.096474
1870000000	-31.584171	80.564590	-1.879643	-132.190160	-1.884509	-132.239520	-31.107147	83.936226
1880000000	-31.607092	79.852684	-1.879317	-132.891980	-1.883865	-132.934170	-31.167391	83.439018
1890000000	-31.649988	79.299492	-1.879813	-133.586750	-1.883161	-133.640910	-31.230957	82.851425
1900000000	-31.621992	78.721016	-1.879297	-134.284440	-1.883534	-134.343260	-31.234928	82.258820
1910000000	-31.493107	78.411774	-1.878064	-134.987670	-1.883037	-135.047010	-31.116793	81.909210
1920000000	-31.303917	78.419334	-1.877724	-135.689350	-1.882048	-135.747760	-30.898062	81.747849
1930000000	-31.188475	78.624886	-1.876977	-136.395740	-1.881458	-136.448460	-30.717720	81.586960
1940000000	-31.111864	78.767494	-1.877060	-137.094760	-1.880949	-137.151750	-30.608570	81.386063
1950000000	-31.078787	78.783157	-1.876160	-137.798450	-1.881054	-137.862090	-30.601131	81.215820
1960000000	-31.083162	78.373131	-1.875920	-138.492520	-1.880468	-138.564910	-30.593382	81.192451
1970000000	-31.077240	77.804260	-1.875687	-139.192640	-1.880202	-139.269440	-30.573004	80.940277
1980000000	-31.039772	77.401268	-1.875533	-139.899430	-1.878931	-139.967440	-30.475664	80.739677
1990000000	-30.975069	77.227486	-1.874881	-140.615100	-1.878678	-140.662540	-30.426302	80.429115
2000000000	-30.967379	76.806946	-1.874820	-141.317060	-1.877763	-141.363480	-30.440985	80.037163
2010000000	-31.033039	76.267723	-1.873663	-142.019550	-1.878408	-142.068530	-30.527878	79.643898
2020000000	-31.109068	76.018532	-1.874005	-142.717100	-1.878412	-142.773350	-30.617271	78.931854
2030000000	-31.117535	76.010582	-1.873887	-143.417690	-1.877516	-143.477520	-30.625761	78.270599
2040000000	-30.995943	76.049469	-1.873684	-144.117100	-1.878267	-144.180280	-30.552290	77.908104
2050000000	-30.789871	75.881699	-1.872819	-144.822330	-1.877594	-144.889190	-30.351072	77.720787
